<!-- RTL Design Sherpa Documentation Header -->
<table>
<tr>
<td width="80">
  <a href="https://github.com/sean-galloway/RTLDesignSherpa">
    <img src="https://raw.githubusercontent.com/sean-galloway/RTLDesignSherpa/main/docs/logos/Logo_200px.png" alt="RTL Design Sherpa" width="70">
  </a>
</td>
<td>
  <strong>RTL Design Sherpa</strong> · <em>Learning Hardware Design Through Practice</em><br>
  <sub>
    <a href="https://github.com/sean-galloway/RTLDesignSherpa">GitHub</a> ·
    <a href="https://github.com/sean-galloway/RTLDesignSherpa/blob/main/docs/DOCUMENTATION_INDEX.md">Documentation Index</a> ·
    <a href="https://github.com/sean-galloway/RTLDesignSherpa/blob/main/LICENSE">MIT License</a>
  </sub>
</td>
</tr>
</table>

---

<!-- End Header -->

# AXI4 Slave Interface

The controller exposes a standard AXI4 slave (`pumice_top` / `pumice_core`) for
SoC connectivity. All slave ports use the `s_axi_*` prefix with no `i_`/`o_`
decoration (e.g. `s_axi_awid`, `s_axi_awaddr`, `s_axi_wdata`, `s_axi_rdata`).

The AXI side runs on `aclk` / `aresetn`.

## Data Width Is Fixed at DW

The core's AXI data width is **not** a free parameter. It is fixed at

```
DW = DRAM_BEAT_WIDTH * DFI_RATE
```

i.e. one AXI beat carries exactly one DFI word (= `DFI_RATE` DRAM beats). There
is no independent `AXI_DATA_WIDTH` parameter on `pumice_top`; `s_axi_wdata` /
`s_axi_rdata` / `s_axi_wstrb` are always `DW` / `DW` / `DW/8` bits.

To attach a host AXI bus of a *different* width, use the optional wrapper
`pumice_top_geared` (see [Host-Width Gearing](#host-width-gearing) below).

### Hard width rule (compile-enforced)

`pumice_top_geared`'s `HOST_AXI_DATA_WIDTH` and the DFI word `DW` **MUST** relate
by an **exact power-of-two ratio** — `AXI:DFI = G:1` or `1:G`, `G ∈ {1,2,4,8,…}`.
An `initial assert … $fatal` in `pumice_top_geared` **fails elaboration /
Vivado synthesis** on any other pairing, so a bad width choice is a **compile
error**, never a silent broken build. Rationale (identical to LiteDRAM, whose
AXI frontend is 1:1 with its native port and routes all width change through a
power-of-two stride converter): the DFI word is the atomic memory-side transfer,
so an AXI beat must be a whole power-of-two number of DFI words. `DW` and
`HOST_AXI_DATA_WIDTH` are the **only** compile-time width parameters — gear
(active phases) and burst length are runtime CSRs (build-for-max).

## Channels

Standard AXI4 — all five channels (AW, W, B, AR, R) are mandatory. No exclusive
access support; `s_axi_awlock` / `s_axi_arlock` are present but ignored.

### AW (Write Address) — SoC master → controller slave

| Signal            | Width            | Notes                                     |
|-------------------|------------------|-------------------------------------------|
| `s_axi_awid`      | `AXI_ID_WIDTH`   | Transaction ID                            |
| `s_axi_awaddr`    | `AXI_ADDR_WIDTH` | Flat byte address                         |
| `s_axi_awlen`     | 8                | Burst length minus 1                      |
| `s_axi_awsize`    | 3                | Beat size; up to bus width                |
| `s_axi_awburst`   | 2                | `INCR` mandatory; `FIXED`/`WRAP` optional |
| `s_axi_awlock`    | 1                | Present; ignored (no exclusive access)    |
| `s_axi_awcache`   | 4                | Present; ignored                          |
| `s_axi_awprot`    | 3                | Present; ignored                          |
| `s_axi_awqos`     | 4                | Present; ignored                          |
| `s_axi_awregion`  | 4                | Present; ignored                          |
| `s_axi_awuser`    | 1                | Present; ignored                          |
| `s_axi_awvalid`   | 1                | Master asserts                            |
| `s_axi_awready`   | 1                | Controller asserts when the WR intake / CAM can accept |

### W (Write Data)

| Signal          | Width   | Notes                                     |
|-----------------|---------|-------------------------------------------|
| `s_axi_wdata`   | `DW`    | Beat data (`DW = DRAM_BEAT_WIDTH*DFI_RATE`) |
| `s_axi_wstrb`   | `DW/8`  | Byte enables; inverted to `dfi_wrdata_mask` |
| `s_axi_wlast`   | 1       | Final beat of burst                       |
| `s_axi_wuser`   | 1       | Present; ignored                          |
| `s_axi_wvalid`  | 1       | Master asserts                            |
| `s_axi_wready`  | 1       | Controller asserts while the WR data path can accept |

Note: AXI4 W channel has no `wid`; beats are presumed in the order their AW
transactions were issued. The WR intake associates write data with its AW by
arrival order.

### B (Write Response)

| Signal          | Width          | Notes                                |
|-----------------|----------------|--------------------------------------|
| `s_axi_bid`     | `AXI_ID_WIDTH` | Matches `awid`                       |
| `s_axi_bresp`   | 2              | `OKAY` or `SLVERR`                   |
| `s_axi_buser`   | 1              | Present; ignored                     |
| `s_axi_bvalid`  | 1              | Controller asserts on response ready |
| `s_axi_bready`  | 1              | Master asserts                       |

### AR (Read Address)

| Signal            | Width            | Notes                                |
|-------------------|------------------|--------------------------------------|
| `s_axi_arid`      | `AXI_ID_WIDTH`   | Transaction ID                       |
| `s_axi_araddr`    | `AXI_ADDR_WIDTH` | Flat byte address                    |
| `s_axi_arlen`     | 8                | Burst length minus 1                 |
| `s_axi_arsize`    | 3                | Beat size                            |
| `s_axi_arburst`   | 2                | `INCR` mandatory; others optional    |
| `s_axi_arlock`    | 1                | Present; ignored                     |
| `s_axi_arcache`   | 4                | Present; ignored                     |
| `s_axi_arprot`    | 3                | Present; ignored                     |
| `s_axi_arqos`     | 4                | Present; ignored                     |
| `s_axi_arregion`  | 4                | Present; ignored                     |
| `s_axi_aruser`    | 1                | Present; ignored                     |
| `s_axi_arvalid`   | 1                | Master asserts                       |
| `s_axi_arready`   | 1                | Controller asserts when the RD intake / CAM can accept |

### R (Read Data)

| Signal          | Width          | Notes                                  |
|-----------------|----------------|----------------------------------------|
| `s_axi_rdata`   | `DW`           | Beat data                              |
| `s_axi_rid`     | `AXI_ID_WIDTH` | Matches `arid`                         |
| `s_axi_rresp`   | 2              | `OKAY` (v1 always)                     |
| `s_axi_rlast`   | 1              | Final beat of burst                    |
| `s_axi_ruser`   | 1              | Present; ignored                       |
| `s_axi_rvalid`  | 1              | Controller asserts when beat ready     |
| `s_axi_rready`  | 1              | Master asserts                         |

## Ordering Rules

- **Within an ID:** AXI4 ordering preserved. Reads from `arid = X` return in AR order; writes to `awid = X` commit in AW order.
- **Across IDs:** Out-of-order completion permitted by default (`AXI_OOO_ACROSS_IDS = true`). Disabling forces in-order across IDs at the cost of bandwidth.

## Burst Type Support

| Burst    | Mandatory | Notes                                                  |
|----------|-----------|--------------------------------------------------------|
| `FIXED`  | optional  | Enable with `SUPPORT_FIXED_BURST`; rarely useful for DRAM |
| `INCR`   | mandatory | Standard incrementing burst                            |
| `WRAP`   | optional  | Enable with `SUPPORT_WRAP_BURST`                       |

## Burst Length and DRAM-Burst Geometry

AXI4 allows up to 256 beats. The frontend `pumice_axi4_layer` splits every host
burst at DRAM-burst-byte boundaries (`axi_master_wr_splitter` /
`axi_master_rd_splitter`) so each split request maps to exactly one DRAM burst.

At the `DW` side the required geometry is:

```
(awlen + 1) * DFI_RATE == BL
```

i.e. one AXI burst at `DW` equals one DRAM burst of `BL` beats. (The older
"`AXI_DATA_WIDTH == DRAM_BEAT_WIDTH`" coupling no longer applies — the AXI beat
is a full DFI word of `DFI_RATE` DRAM beats.)

## Narrow Transfers

AXI4 supports `awsize < bus width`. The narrow case is handled via `wstrb` — the
unused byte lanes are masked. `dfi_wrdata_mask = ~wstrb`, so the DRAM commits
only the unmasked bytes.

## Write Response Timing

The B response is **commit-driven**: it is returned once the write is accepted
and committed by the controller (`pumice_wr_intake` raises B from the downstream
commit-done handshake). A `SLVERR` B is self-generated by the intake for a
malformed request; otherwise `OKAY`.

## Frontend and Backpressure

The AXI frontend is `pumice_axi4_layer`: dumb 1:1 write and read intakes
(`pumice_wr_intake`, `pumice_rd_intake`) feeding a write-data CAM
(`pumice_wr_data_cam`, the write buffer / snarf source) and a read reorder CAM
(`pumice_rd_cmd_cam`), with in-order commit. There is no monolithic `txn_queue`.

- AW / AR `.ready` deassert when the corresponding intake or CAM cannot accept a
  new request (insertion `ready` low).
- W `.ready` deasserts when the write-data path (CAM buffer) is full.
- R / B `.valid` follow standard protocol; consumers may stall indefinitely
  without controller misbehavior.

## Host-Width Gearing

To use a host AXI data width different from `DW`, instantiate the optional
wrapper `pumice_top_geared` (parameter `HOST_AXI_DATA_WIDTH`, verified at
{64, 128, 256}). It inserts the repo's formally-verified
`axi4_dwidth_converter_wr` / `axi4_dwidth_converter_rd` between the host-width
slave and the `DW`-width core. When `HOST_AXI_DATA_WIDTH == DW`, a generate
branch bypasses the converters entirely, so the build is bit-identical to
`pumice_top` (no converter, no added latency). See
`docs/AXI_DRAM_GEARING_SCOPE.md`.

## AXI4 Reset

`aresetn` is the AXI reset (active-low). When asserted, all AXI-side state is
cleared. `aclk` / `aresetn` clock and reset the controller/AXI domain; the DFI
side uses the independent `dfi_clk` / `dfi_rstn` (see the DFI chapter).
